#   Hz   S  RI   R   50
!
0.000000e+00 1.119546e-02 0.000000e+00 9.806923e-01 0.000000e+00 9.806915e-01 0.000000e+00 1.120267e-02 0.000000e+00
7.500000e+07 1.125528e-02 7.125251e-03 9.806195e-01 -8.187921e-03 9.806187e-01 -8.187905e-03 1.126251e-02 7.121640e-03
1.500000e+08 1.143468e-02 1.424782e-02 9.804013e-01 -1.637116e-02 9.804005e-01 -1.637113e-02 1.144195e-02 1.424060e-02
2.250000e+08 1.173350e-02 2.136504e-02 9.800381e-01 -2.454507e-02 9.800374e-01 -2.454502e-02 1.174086e-02 2.135421e-02
3.000000e+08 1.215152e-02 2.847424e-02 9.795307e-01 -3.270504e-02 9.795299e-01 -3.270498e-02 1.215899e-02 2.845980e-02
3.750000e+08 1.268837e-02 3.557278e-02 9.788799e-01 -4.084654e-02 9.788791e-01 -4.084646e-02 1.269598e-02 3.555474e-02
4.500000e+08 1.334363e-02 4.265806e-02 9.780869e-01 -4.896513e-02 9.780861e-01 -4.896503e-02 1.335142e-02 4.263640e-02
5.250000e+08 1.411675e-02 4.972748e-02 9.771533e-01 -5.705647e-02 9.771525e-01 -5.705636e-02 1.412475e-02 4.970222e-02
6.000000e+08 1.500713e-02 5.677849e-02 9.760807e-01 -6.511639e-02 9.760799e-01 -6.511627e-02 1.501538e-02 5.674963e-02
6.750000e+08 1.601406e-02 6.380860e-02 9.748710e-01 -7.314085e-02 9.748702e-01 -7.314071e-02 1.602258e-02 6.377613e-02
7.500000e+08 1.713676e-02 7.081534e-02 9.735263e-01 -8.112597e-02 9.735256e-01 -8.112581e-02 1.714559e-02 7.077926e-02
8.250000e+08 1.837436e-02 7.779630e-02 9.720490e-01 -8.906808e-02 9.720482e-01 -8.906791e-02 1.838354e-02 7.775662e-02
9.000000e+08 1.972595e-02 8.474913e-02 9.704414e-01 -9.696368e-02 9.704407e-01 -9.696350e-02 1.973550e-02 8.470585e-02
9.750000e+08 2.119051e-02 9.167152e-02 9.687063e-01 -1.048095e-01 9.687056e-01 -1.048093e-01 2.120048e-02 9.162464e-02
1.050000e+09 2.276700e-02 9.856124e-02 9.668462e-01 -1.126025e-01 9.668455e-01 -1.126022e-01 2.277743e-02 9.851075e-02
1.125000e+09 2.445431e-02 1.054161e-01 9.648642e-01 -1.203397e-01 9.648635e-01 -1.203395e-01 2.446522e-02 1.053620e-01
1.200000e+09 2.625127e-02 1.122340e-01 9.627629e-01 -1.280186e-01 9.627623e-01 -1.280184e-01 2.626271e-02 1.121763e-01
1.275000e+09 2.815668e-02 1.190129e-01 9.605455e-01 -1.356368e-01 9.605449e-01 -1.356365e-01 2.816868e-02 1.189515e-01
1.350000e+09 3.016928e-02 1.257507e-01 9.582150e-01 -1.431920e-01 9.582143e-01 -1.431918e-01 3.018188e-02 1.256858e-01
1.425000e+09 3.228780e-02 1.324456e-01 9.557743e-01 -1.506823e-01 9.557736e-01 -1.506821e-01 3.230104e-02 1.323770e-01
1.500000e+09 3.451092e-02 1.390956e-01 9.532265e-01 -1.581060e-01 9.532259e-01 -1.581057e-01 3.452484e-02 1.390234e-01
1.575000e+09 3.683729e-02 1.456990e-01 9.505746e-01 -1.654614e-01 9.505740e-01 -1.654611e-01 3.685194e-02 1.456232e-01
1.650000e+09 3.926556e-02 1.522540e-01 9.478216e-01 -1.727472e-01 9.478211e-01 -1.727469e-01 3.928096e-02 1.521746e-01
1.725000e+09 4.179433e-02 1.587589e-01 9.449705e-01 -1.799622e-01 9.449700e-01 -1.799619e-01 4.181053e-02 1.586758e-01
1.800000e+09 4.442221e-02 1.652120e-01 9.420242e-01 -1.871055e-01 9.420236e-01 -1.871052e-01 4.443925e-02 1.651253e-01
1.875000e+09 4.714776e-02 1.716118e-01 9.389854e-01 -1.941762e-01 9.389849e-01 -1.941759e-01 4.716568e-02 1.715214e-01
1.950000e+09 4.996958e-02 1.779567e-01 9.358569e-01 -2.011735e-01 9.358564e-01 -2.011732e-01 4.998841e-02 1.778626e-01
2.025000e+09 5.288620e-02 1.842452e-01 9.326413e-01 -2.080970e-01 9.326408e-01 -2.080967e-01 5.290600e-02 1.841474e-01
2.100000e+09 5.589618e-02 1.904759e-01 9.293411e-01 -2.149463e-01 9.293407e-01 -2.149460e-01 5.591698e-02 1.903744e-01
2.175000e+09 5.899807e-02 1.966473e-01 9.259589e-01 -2.217209e-01 9.259585e-01 -2.217206e-01 5.901990e-02 1.965421e-01
2.250000e+09 6.219039e-02 2.027581e-01 9.224970e-01 -2.284207e-01 9.224965e-01 -2.284204e-01 6.221330e-02 2.026491e-01
2.325000e+09 6.547166e-02 2.088069e-01 9.189575e-01 -2.350455e-01 9.189571e-01 -2.350452e-01 6.549569e-02 2.086942e-01
2.400000e+09 6.884042e-02 2.147925e-01 9.153426e-01 -2.415953e-01 9.153422e-01 -2.415950e-01 6.886561e-02 2.146760e-01
2.475000e+09 7.229516e-02 2.207136e-01 9.116543e-01 -2.480701e-01 9.116540e-01 -2.480697e-01 7.232154e-02 2.205932e-01
2.550000e+09 7.583439e-02 2.265689e-01 9.078945e-01 -2.544697e-01 9.078942e-01 -2.544694e-01 7.586201e-02 2.264447e-01
2.625000e+09 7.945661e-02 2.323573e-01 9.040651e-01 -2.607945e-01 9.040648e-01 -2.607942e-01 7.948549e-02 2.322292e-01
2.700000e+09 8.316029e-02 2.380776e-01 9.001676e-01 -2.670443e-01 9.001673e-01 -2.670440e-01 8.319049e-02 2.379456e-01
2.775000e+09 8.694392e-02 2.437286e-01 8.962038e-01 -2.732193e-01 8.962035e-01 -2.732190e-01 8.697546e-02 2.435926e-01
2.850000e+09 9.080596e-02 2.493093e-01 8.921751e-01 -2.793196e-01 8.921749e-01 -2.793193e-01 9.083887e-02 2.491693e-01
2.925000e+09 9.474485e-02 2.548185e-01 8.880830e-01 -2.853452e-01 8.880827e-01 -2.853450e-01 9.477918e-02 2.546746e-01
3.000000e+09 9.875905e-02 2.602553e-01 8.839287e-01 -2.912964e-01 8.839285e-01 -2.912961e-01 9.879482e-02 2.601073e-01
3.075000e+09 1.028470e-01 2.656185e-01 8.797137e-01 -2.971730e-01 8.797135e-01 -2.971727e-01 1.028842e-01 2.654664e-01
3.150000e+09 1.070070e-01 2.709073e-01 8.754390e-01 -3.029751e-01 8.754388e-01 -3.029748e-01 1.070458e-01 2.707510e-01
3.225000e+09 1.112376e-01 2.761206e-01 8.711059e-01 -3.087027e-01 8.711057e-01 -3.087025e-01 1.112779e-01 2.759602e-01
3.300000e+09 1.155372e-01 2.812575e-01 8.667155e-01 -3.143559e-01 8.667153e-01 -3.143556e-01 1.155790e-01 2.810929e-01
3.375000e+09 1.199040e-01 2.863171e-01 8.622688e-01 -3.199345e-01 8.622686e-01 -3.199342e-01 1.199474e-01 2.861482e-01
3.450000e+09 1.243364e-01 2.912986e-01 8.577669e-01 -3.254384e-01 8.577667e-01 -3.254381e-01 1.243815e-01 2.911254e-01
3.525000e+09 1.288328e-01 2.962011e-01 8.532107e-01 -3.308674e-01 8.532106e-01 -3.308672e-01 1.288795e-01 2.960235e-01
3.600000e+09 1.333915e-01 3.010238e-01 8.486014e-01 -3.362215e-01 8.486013e-01 -3.362213e-01 1.334399e-01 3.008419e-01
3.675000e+09 1.380108e-01 3.057660e-01 8.439398e-01 -3.415003e-01 8.439397e-01 -3.415001e-01 1.380608e-01 3.055796e-01
3.750000e+09 1.426890e-01 3.104270e-01 8.392270e-01 -3.467037e-01 8.392269e-01 -3.467035e-01 1.427407e-01 3.102361e-01
3.825000e+09 1.474243e-01 3.150061e-01 8.344638e-01 -3.518313e-01 8.344638e-01 -3.518311e-01 1.474778e-01 3.148106e-01
3.900000e+09 1.522151e-01 3.195026e-01 8.296514e-01 -3.568828e-01 8.296513e-01 -3.568827e-01 1.522703e-01 3.193025e-01
3.975000e+09 1.570595e-01 3.239159e-01 8.247906e-01 -3.618579e-01 8.247906e-01 -3.618578e-01 1.571164e-01 3.237112e-01
4.050000e+09 1.619559e-01 3.282456e-01 8.198825e-01 -3.667563e-01 8.198825e-01 -3.667561e-01 1.620145e-01 3.280361e-01
4.125000e+09 1.669024e-01 3.324911e-01 8.149282e-01 -3.715774e-01 8.149282e-01 -3.715773e-01 1.669628e-01 3.322768e-01
4.200000e+09 1.718972e-01 3.366519e-01 8.099286e-01 -3.763209e-01 8.099286e-01 -3.763208e-01 1.719594e-01 3.364328e-01
4.275000e+09 1.769386e-01 3.407277e-01 8.048848e-01 -3.809864e-01 8.048848e-01 -3.809863e-01 1.770027e-01 3.405037e-01
4.350000e+09 1.820249e-01 3.447181e-01 7.997980e-01 -3.855735e-01 7.997980e-01 -3.855734e-01 1.820907e-01 3.444891e-01
4.425000e+09 1.871542e-01 3.486227e-01 7.946693e-01 -3.900817e-01 7.946693e-01 -3.900816e-01 1.872218e-01 3.483888e-01
4.500000e+09 1.923246e-01 3.524414e-01 7.894999e-01 -3.945105e-01 7.894999e-01 -3.945105e-01 1.923941e-01 3.522023e-01
4.575000e+09 1.975346e-01 3.561738e-01 7.842908e-01 -3.988596e-01 7.842908e-01 -3.988596e-01 1.976058e-01 3.559296e-01
4.650000e+09 2.027822e-01 3.598199e-01 7.790435e-01 -4.031286e-01 7.790435e-01 -4.031285e-01 2.028552e-01 3.595705e-01
4.725000e+09 2.080658e-01 3.633795e-01 7.737591e-01 -4.073169e-01 7.737591e-01 -4.073169e-01 2.081406e-01 3.631249e-01
4.800000e+09 2.133834e-01 3.668526e-01 7.684389e-01 -4.114243e-01 7.684389e-01 -4.114243e-01 2.134601e-01 3.665926e-01
4.875000e+09 2.187335e-01 3.702391e-01 7.630843e-01 -4.154504e-01 7.630844e-01 -4.154504e-01 2.188120e-01 3.699738e-01
4.950000e+09 2.241143e-01 3.735390e-01 7.576967e-01 -4.193948e-01 7.576967e-01 -4.193948e-01 2.241945e-01 3.732683e-01
5.025000e+09 2.295241e-01 3.767526e-01 7.522773e-01 -4.232572e-01 7.522773e-01 -4.232572e-01 2.296061e-01 3.764764e-01
5.100000e+09 2.349611e-01 3.798798e-01 7.468276e-01 -4.270373e-01 7.468276e-01 -4.270373e-01 2.350448e-01 3.795980e-01
5.175000e+09 2.404237e-01 3.829208e-01 7.413491e-01 -4.307349e-01 7.413491e-01 -4.307350e-01 2.405092e-01 3.826335e-01
5.250000e+09 2.459103e-01 3.858759e-01 7.358432e-01 -4.343498e-01 7.358432e-01 -4.343499e-01 2.459976e-01 3.855829e-01
5.325000e+09 2.514192e-01 3.887453e-01 7.303113e-01 -4.378818e-01 7.303113e-01 -4.378819e-01 2.515082e-01 3.884466e-01
5.400000e+09 2.569489e-01 3.915294e-01 7.247550e-01 -4.413308e-01 7.247550e-01 -4.413308e-01 2.570396e-01 3.912248e-01
5.475000e+09 2.624977e-01 3.942283e-01 7.191757e-01 -4.446966e-01 7.191757e-01 -4.446967e-01 2.625902e-01 3.939179e-01
5.550000e+09 2.680642e-01 3.968426e-01 7.135750e-01 -4.479793e-01 7.135750e-01 -4.479794e-01 2.681584e-01 3.965263e-01
5.625000e+09 2.736469e-01 3.993726e-01 7.079543e-01 -4.511789e-01 7.079543e-01 -4.511790e-01 2.737427e-01 3.990503e-01
5.700000e+09 2.792442e-01 4.018187e-01 7.023152e-01 -4.542954e-01 7.023152e-01 -4.542955e-01 2.793416e-01 4.014904e-01
5.775000e+09 2.848547e-01 4.041814e-01 6.966591e-01 -4.573289e-01 6.966591e-01 -4.573290e-01 2.849538e-01 4.038470e-01
5.850000e+09 2.904770e-01 4.064612e-01 6.909876e-01 -4.602796e-01 6.909876e-01 -4.602797e-01 2.905777e-01 4.061206e-01
5.925000e+09 2.961098e-01 4.086585e-01 6.853022e-01 -4.631476e-01 6.853022e-01 -4.631477e-01 2.962121e-01 4.083118e-01
6.000000e+09 3.017518e-01 4.107741e-01 6.796044e-01 -4.659332e-01 6.796044e-01 -4.659333e-01 3.018556e-01 4.104211e-01
6.075000e+09 3.074015e-01 4.128083e-01 6.738955e-01 -4.686366e-01 6.738956e-01 -4.686368e-01 3.075069e-01 4.124490e-01
6.150000e+09 3.130578e-01 4.147618e-01 6.681772e-01 -4.712583e-01 6.681772e-01 -4.712584e-01 3.131647e-01 4.143962e-01
6.225000e+09 3.187195e-01 4.166352e-01 6.624508e-01 -4.737985e-01 6.624508e-01 -4.737987e-01 3.188278e-01 4.162631e-01
6.300000e+09 3.243852e-01 4.184291e-01 6.567177e-01 -4.762577e-01 6.567177e-01 -4.762578e-01 3.244951e-01 4.180505e-01
6.375000e+09 3.300540e-01 4.201440e-01 6.509793e-01 -4.786363e-01 6.509793e-01 -4.786365e-01 3.301653e-01 4.197589e-01
6.450000e+09 3.357246e-01 4.217807e-01 6.452370e-01 -4.809348e-01 6.452370e-01 -4.809350e-01 3.358373e-01 4.213891e-01
6.525000e+09 3.413960e-01 4.233398e-01 6.394922e-01 -4.831537e-01 6.394922e-01 -4.831539e-01 3.415100e-01 4.229415e-01
6.600000e+09 3.470671e-01 4.248218e-01 6.337460e-01 -4.852936e-01 6.337460e-01 -4.852938e-01 3.471824e-01 4.244168e-01
6.675000e+09 3.527368e-01 4.262276e-01 6.279999e-01 -4.873550e-01 6.279999e-01 -4.873553e-01 3.528535e-01 4.258158e-01
6.750000e+09 3.584043e-01 4.275576e-01 6.222550e-01 -4.893387e-01 6.222550e-01 -4.893389e-01 3.585222e-01 4.271391e-01
6.825000e+09 3.640684e-01 4.288126e-01 6.165126e-01 -4.912451e-01 6.165126e-01 -4.912453e-01 3.641876e-01 4.283873e-01
6.900000e+09 3.697283e-01 4.299933e-01 6.107739e-01 -4.930750e-01 6.107738e-01 -4.930753e-01 3.698488e-01 4.295611e-01
6.975000e+09 3.753831e-01 4.311003e-01 6.050399e-01 -4.948291e-01 6.050398e-01 -4.948293e-01 3.755047e-01 4.306611e-01
7.050000e+09 3.810319e-01 4.321342e-01 5.993118e-01 -4.965080e-01 5.993117e-01 -4.965083e-01 3.811546e-01 4.316880e-01
7.125000e+09 3.866737e-01 4.330957e-01 5.935906e-01 -4.981125e-01 5.935906e-01 -4.981128e-01 3.867976e-01 4.326425e-01
7.200000e+09 3.923079e-01 4.339855e-01 5.878775e-01 -4.996434e-01 5.878774e-01 -4.996437e-01 3.924328e-01 4.335252e-01
7.275000e+09 3.979335e-01 4.348043e-01 5.821733e-01 -5.011013e-01 5.821732e-01 -5.011016e-01 3.980594e-01 4.343368e-01
7.350000e+09 4.035497e-01 4.355525e-01 5.764791e-01 -5.024871e-01 5.764790e-01 -5.024874e-01 4.036766e-01 4.350779e-01
7.425000e+09 4.091558e-01 4.362310e-01 5.707958e-01 -5.038014e-01 5.707957e-01 -5.038017e-01 4.092837e-01 4.357492e-01
7.500000e+09 4.147511e-01 4.368403e-01 5.651243e-01 -5.050452e-01 5.651242e-01 -5.050455e-01 4.148799e-01 4.363512e-01
7.575000e+09 4.203347e-01 4.373812e-01 5.594654e-01 -5.062191e-01 5.594653e-01 -5.062194e-01 4.204644e-01 4.368847e-01
7.650000e+09 4.259059e-01 4.378541e-01 5.538201e-01 -5.073239e-01 5.538200e-01 -5.073243e-01 4.260365e-01 4.373503e-01
7.725000e+09 4.314641e-01 4.382598e-01 5.481890e-01 -5.083605e-01 5.481889e-01 -5.083609e-01 4.315955e-01 4.377485e-01
7.800000e+09 4.370086e-01 4.385988e-01 5.425730e-01 -5.093297e-01 5.425729e-01 -5.093300e-01 4.371407e-01 4.380801e-01
7.875000e+09 4.425385e-01 4.388718e-01 5.369728e-01 -5.102321e-01 5.369726e-01 -5.102324e-01 4.426714e-01 4.383456e-01
7.950000e+09 4.480534e-01 4.390794e-01 5.313891e-01 -5.110686e-01 5.313889e-01 -5.110690e-01 4.481869e-01 4.385457e-01
8.025000e+09 4.535525e-01 4.392222e-01 5.258226e-01 -5.118400e-01 5.258224e-01 -5.118404e-01 4.536866e-01 4.386809e-01
8.100000e+09 4.590351e-01 4.393009e-01 5.202739e-01 -5.125471e-01 5.202737e-01 -5.125475e-01 4.591698e-01 4.387520e-01
8.175000e+09 4.645006e-01 4.393160e-01 5.147437e-01 -5.131906e-01 5.147436e-01 -5.131910e-01 4.646359e-01 4.387594e-01
8.250000e+09 4.699484e-01 4.392682e-01 5.092327e-01 -5.137713e-01 5.092325e-01 -5.137716e-01 4.700842e-01 4.387038e-01
8.325000e+09 4.753778e-01 4.391580e-01 5.037413e-01 -5.142899e-01 5.037411e-01 -5.142903e-01 4.755141e-01 4.385859e-01
8.400000e+09 4.807883e-01 4.389860e-01 4.982702e-01 -5.147473e-01 4.982700e-01 -5.147476e-01 4.809249e-01 4.384062e-01
8.475000e+09 4.861791e-01 4.387530e-01 4.928198e-01 -5.151441e-01 4.928196e-01 -5.151444e-01 4.863162e-01 4.381653e-01
8.550000e+09 4.915498e-01 4.384594e-01 4.873908e-01 -5.154810e-01 4.873906e-01 -5.154814e-01 4.916872e-01 4.378639e-01
8.625000e+09 4.968997e-01 4.381060e-01 4.819837e-01 -5.157589e-01 4.819834e-01 -5.157593e-01 4.970373e-01 4.375026e-01
8.700000e+09 5.022282e-01 4.376933e-01 4.765988e-01 -5.159785e-01 4.765986e-01 -5.159789e-01 5.023661e-01 4.370819e-01
8.775000e+09 5.075348e-01 4.372219e-01 4.712368e-01 -5.161404e-01 4.712366e-01 -5.161408e-01 5.076728e-01 4.366025e-01
8.850000e+09 5.128188e-01 4.366925e-01 4.658981e-01 -5.162454e-01 4.658978e-01 -5.162458e-01 5.129570e-01 4.360651e-01
8.925000e+09 5.180797e-01 4.361056e-01 4.605831e-01 -5.162941e-01 4.605828e-01 -5.162945e-01 5.182180e-01 4.354702e-01
9.000000e+09 5.233170e-01 4.354620e-01 4.552922e-01 -5.162873e-01 4.552920e-01 -5.162877e-01 5.234553e-01 4.348186e-01
9.075000e+09 5.285300e-01 4.347623e-01 4.500260e-01 -5.162257e-01 4.500257e-01 -5.162260e-01 5.286684e-01 4.341107e-01
9.150000e+09 5.337184e-01 4.340070e-01 4.447847e-01 -5.161098e-01 4.447844e-01 -5.161102e-01 5.338566e-01 4.333473e-01
9.225000e+09 5.388814e-01 4.331969e-01 4.395689e-01 -5.159405e-01 4.395686e-01 -5.159409e-01 5.390196e-01 4.325290e-01
9.300000e+09 5.440186e-01 4.323326e-01 4.343789e-01 -5.157183e-01 4.343785e-01 -5.157187e-01 5.441567e-01 4.316565e-01
9.375000e+09 5.491296e-01 4.314148e-01 4.292150e-01 -5.154440e-01 4.292147e-01 -5.154444e-01 5.492674e-01 4.307304e-01
9.450000e+09 5.542137e-01 4.304441e-01 4.240778e-01 -5.151181e-01 4.240774e-01 -5.151185e-01 5.543513e-01 4.297515e-01
9.525000e+09 5.592706e-01 4.294212e-01 4.189674e-01 -5.147414e-01 4.189671e-01 -5.147418e-01 5.594079e-01 4.287203e-01
9.600000e+09 5.642997e-01 4.283468e-01 4.138844e-01 -5.143144e-01 4.138840e-01 -5.143148e-01 5.644366e-01 4.276375e-01
9.675000e+09 5.693006e-01 4.272215e-01 4.088290e-01 -5.138379e-01 4.088286e-01 -5.138383e-01 5.694371e-01 4.265039e-01
9.750000e+09 5.742728e-01 4.260461e-01 4.038016e-01 -5.133125e-01 4.038012e-01 -5.133129e-01 5.744089e-01 4.253201e-01
9.825000e+09 5.792159e-01 4.248213e-01 3.988026e-01 -5.127387e-01 3.988021e-01 -5.127391e-01 5.793515e-01 4.240869e-01
9.900000e+09 5.841294e-01 4.235477e-01 3.938322e-01 -5.121173e-01 3.938317e-01 -5.121177e-01 5.842645e-01 4.228049e-01
9.975000e+09 5.890131e-01 4.222260e-01 3.888908e-01 -5.114489e-01 3.888903e-01 -5.114493e-01 5.891475e-01 4.214747e-01
1.005000e+10 5.938664e-01 4.208571e-01 3.839787e-01 -5.107341e-01 3.839782e-01 -5.107344e-01 5.940002e-01 4.200973e-01
1.012500e+10 5.986891e-01 4.194415e-01 3.790962e-01 -5.099735e-01 3.790957e-01 -5.099739e-01 5.988221e-01 4.186732e-01
1.020000e+10 6.034806e-01 4.179800e-01 3.742436e-01 -5.091678e-01 3.742431e-01 -5.091681e-01 6.036130e-01 4.172031e-01
1.027500e+10 6.082408e-01 4.164733e-01 3.694212e-01 -5.083175e-01 3.694207e-01 -5.083179e-01 6.083723e-01 4.156879e-01
1.035000e+10 6.129693e-01 4.149221e-01 3.646293e-01 -5.074234e-01 3.646288e-01 -5.074238e-01 6.131000e-01 4.141281e-01
1.042500e+10 6.176658e-01 4.133272e-01 3.598681e-01 -5.064861e-01 3.598676e-01 -5.064864e-01 6.177955e-01 4.125246e-01
1.050000e+10 6.223299e-01 4.116893e-01 3.551380e-01 -5.055061e-01 3.551375e-01 -5.055064e-01 6.224587e-01 4.108780e-01
1.057500e+10 6.269615e-01 4.100090e-01 3.504392e-01 -5.044841e-01 3.504387e-01 -5.044845e-01 6.270892e-01 4.091891e-01
1.065000e+10 6.315602e-01 4.082872e-01 3.457719e-01 -5.034208e-01 3.457714e-01 -5.034211e-01 6.316869e-01 4.074586e-01
1.072500e+10 6.361259e-01 4.065245e-01 3.411364e-01 -5.023167e-01 3.411359e-01 -5.023170e-01 6.362514e-01 4.056873e-01
1.080000e+10 6.406582e-01 4.047217e-01 3.365330e-01 -5.011725e-01 3.365324e-01 -5.011728e-01 6.407826e-01 4.038757e-01
1.087500e+10 6.451571e-01 4.028794e-01 3.319617e-01 -4.999888e-01 3.319612e-01 -4.999891e-01 6.452802e-01 4.020247e-01
1.095000e+10 6.496223e-01 4.009985e-01 3.274229e-01 -4.987662e-01 3.274224e-01 -4.987665e-01 6.497441e-01 4.001350e-01
1.102500e+10 6.540536e-01 3.990794e-01 3.229168e-01 -4.975054e-01 3.229162e-01 -4.975057e-01 6.541741e-01 3.982072e-01
1.110000e+10 6.584510e-01 3.971231e-01 3.184435e-01 -4.962070e-01 3.184430e-01 -4.962072e-01 6.585701e-01 3.962421e-01
1.117500e+10 6.628142e-01 3.951302e-01 3.140033e-01 -4.948715e-01 3.140027e-01 -4.948718e-01 6.629318e-01 3.942403e-01
1.125000e+10 6.671431e-01 3.931013e-01 3.095963e-01 -4.934997e-01 3.095957e-01 -4.935000e-01 6.672593e-01 3.922026e-01
1.132500e+10 6.714377e-01 3.910371e-01 3.052226e-01 -4.920922e-01 3.052220e-01 -4.920925e-01 6.715523e-01 3.901296e-01
1.140000e+10 6.756979e-01 3.889383e-01 3.008825e-01 -4.906495e-01 3.008819e-01 -4.906498e-01 6.758109e-01 3.880220e-01
1.147500e+10 6.799235e-01 3.868056e-01 2.965761e-01 -4.891723e-01 2.965754e-01 -4.891725e-01 6.800349e-01 3.858804e-01
1.155000e+10 6.841146e-01 3.846396e-01 2.923034e-01 -4.876612e-01 2.923028e-01 -4.876614e-01 6.842242e-01 3.837055e-01
1.162500e+10 6.882710e-01 3.824410e-01 2.880647e-01 -4.861168e-01 2.880640e-01 -4.861170e-01 6.883788e-01 3.814979e-01
1.170000e+10 6.923927e-01 3.802103e-01 2.838600e-01 -4.845397e-01 2.838593e-01 -4.845399e-01 6.924987e-01 3.792584e-01
1.177500e+10 6.964798e-01 3.779482e-01 2.796894e-01 -4.829305e-01 2.796887e-01 -4.829308e-01 6.965839e-01 3.769874e-01
1.185000e+10 7.005321e-01 3.756554e-01 2.755530e-01 -4.812899e-01 2.755524e-01 -4.812901e-01 7.006343e-01 3.746856e-01
1.192500e+10 7.045497e-01 3.733323e-01 2.714509e-01 -4.796184e-01 2.714503e-01 -4.796186e-01 7.046500e-01 3.723536e-01
1.200000e+10 7.085327e-01 3.709797e-01 2.673832e-01 -4.779165e-01 2.673825e-01 -4.779168e-01 7.086309e-01 3.699920e-01
1.207500e+10 7.124809e-01 3.685980e-01 2.633499e-01 -4.761850e-01 2.633492e-01 -4.761852e-01 7.125770e-01 3.676013e-01
1.215000e+10 7.163945e-01 3.661878e-01 2.593511e-01 -4.744244e-01 2.593504e-01 -4.744246e-01 7.164884e-01 3.651822e-01
1.222500e+10 7.202734e-01 3.637497e-01 2.553867e-01 -4.726352e-01 2.553860e-01 -4.726354e-01 7.203651e-01 3.627351e-01
1.230000e+10 7.241177e-01 3.612843e-01 2.514569e-01 -4.708181e-01 2.514562e-01 -4.708183e-01 7.242071e-01 3.602606e-01
1.237500e+10 7.279274e-01 3.587920e-01 2.475616e-01 -4.689735e-01 2.475610e-01 -4.689737e-01 7.280146e-01 3.577593e-01
1.245000e+10 7.317026e-01 3.562733e-01 2.437009e-01 -4.671021e-01 2.437002e-01 -4.671023e-01 7.317874e-01 3.552317e-01
