#   Hz   S  RI   R   50
!
0.000000e+00 -9.390243e-01 0.000000e+00
7.500000e+07 -9.385457e-01 2.976134e-02
1.500000e+08 -9.371113e-01 5.947666e-02
2.250000e+08 -9.347257e-01 8.910019e-02
3.000000e+08 -9.313964e-01 1.185867e-01
3.750000e+08 -9.271340e-01 1.478916e-01
4.500000e+08 -9.219519e-01 1.769716e-01
5.250000e+08 -9.158660e-01 2.057843e-01
6.000000e+08 -9.088950e-01 2.342888e-01
6.750000e+08 -9.010601e-01 2.624462e-01
7.500000e+08 -8.923847e-01 2.902189e-01
8.250000e+08 -8.828941e-01 3.175716e-01
9.000000e+08 -8.726158e-01 3.444710e-01
9.750000e+08 -8.615789e-01 3.708861e-01
1.050000e+09 -8.498137e-01 3.967881e-01
1.125000e+09 -8.373520e-01 4.221506e-01
1.200000e+09 -8.242267e-01 4.469497e-01
1.275000e+09 -8.104714e-01 4.711638e-01
1.350000e+09 -7.961203e-01 4.947740e-01
1.425000e+09 -7.812081e-01 5.177635e-01
1.500000e+09 -7.657695e-01 5.401182e-01
1.575000e+09 -7.498396e-01 5.618260e-01
1.650000e+09 -7.334531e-01 5.828775e-01
1.725000e+09 -7.166445e-01 6.032650e-01
1.800000e+09 -6.994476e-01 6.229834e-01
1.875000e+09 -6.818960e-01 6.420292e-01
1.950000e+09 -6.640224e-01 6.604009e-01
2.025000e+09 -6.458586e-01 6.780989e-01
2.100000e+09 -6.274357e-01 6.951252e-01
2.175000e+09 -6.087836e-01 7.114832e-01
2.250000e+09 -5.899314e-01 7.271778e-01
2.325000e+09 -5.709069e-01 7.422153e-01
2.400000e+09 -5.517368e-01 7.566029e-01
2.475000e+09 -5.324467e-01 7.703492e-01
2.550000e+09 -5.130611e-01 7.834634e-01
2.625000e+09 -4.936030e-01 7.959558e-01
2.700000e+09 -4.740945e-01 8.078372e-01
2.775000e+09 -4.545565e-01 8.191191e-01
2.850000e+09 -4.350085e-01 8.298135e-01
2.925000e+09 -4.154692e-01 8.399330e-01
3.000000e+09 -3.959559e-01 8.494904e-01
3.075000e+09 -3.764849e-01 8.584988e-01
3.150000e+09 -3.570715e-01 8.669715e-01
3.225000e+09 -3.377299e-01 8.749219e-01
3.300000e+09 -3.184735e-01 8.823637e-01
3.375000e+09 -2.993145e-01 8.893104e-01
3.450000e+09 -2.802645e-01 8.957756e-01
3.525000e+09 -2.613339e-01 9.017729e-01
3.600000e+09 -2.425326e-01 9.073157e-01
3.675000e+09 -2.238696e-01 9.124173e-01
3.750000e+09 -2.053532e-01 9.170911e-01
3.825000e+09 -1.869910e-01 9.213499e-01
3.900000e+09 -1.687900e-01 9.252066e-01
3.975000e+09 -1.507565e-01 9.286740e-01
4.050000e+09 -1.328962e-01 9.317644e-01
4.125000e+09 -1.152144e-01 9.344901e-01
4.200000e+09 -9.771590e-02 9.368630e-01
4.275000e+09 -8.040483e-02 9.388950e-01
4.350000e+09 -6.328502e-02 9.405974e-01
4.425000e+09 -4.635985e-02 9.419817e-01
4.500000e+09 -2.963230e-02 9.430588e-01
4.575000e+09 -1.310496e-02 9.438394e-01
4.650000e+09 3.219897e-03 9.443342e-01
4.725000e+09 1.934035e-02 9.445534e-01
4.800000e+09 3.525478e-02 9.445071e-01
4.875000e+09 5.096187e-02 9.442051e-01
4.950000e+09 6.646055e-02 9.436569e-01
5.025000e+09 8.175005e-02 9.428719e-01
5.100000e+09 9.682980e-02 9.418592e-01
5.175000e+09 1.116995e-01 9.406276e-01
5.250000e+09 1.263591e-01 9.391859e-01
5.325000e+09 1.408086e-01 9.375425e-01
5.400000e+09 1.550483e-01 9.357056e-01
5.475000e+09 1.690788e-01 9.336831e-01
5.550000e+09 1.829007e-01 9.314829e-01
5.625000e+09 1.965149e-01 9.291125e-01
5.700000e+09 2.099222e-01 9.265794e-01
5.775000e+09 2.231239e-01 9.238906e-01
5.850000e+09 2.361213e-01 9.210531e-01
5.925000e+09 2.489156e-01 9.180737e-01
6.000000e+09 2.615084e-01 9.149590e-01
6.075000e+09 2.739014e-01 9.117152e-01
6.150000e+09 2.860963e-01 9.083486e-01
6.225000e+09 2.980950e-01 9.048652e-01
6.300000e+09 3.098993e-01 9.012707e-01
6.375000e+09 3.215114e-01 8.975707e-01
6.450000e+09 3.329332e-01 8.937706e-01
6.525000e+09 3.441670e-01 8.898757e-01
6.600000e+09 3.552150e-01 8.858910e-01
6.675000e+09 3.660795e-01 8.818215e-01
6.750000e+09 3.767629e-01 8.776717e-01
6.825000e+09 3.872675e-01 8.734463e-01
6.900000e+09 3.975958e-01 8.691495e-01
6.975000e+09 4.077502e-01 8.647856e-01
7.050000e+09 4.177334e-01 8.603587e-01
7.125000e+09 4.275477e-01 8.558725e-01
7.200000e+09 4.371958e-01 8.513308e-01
7.275000e+09 4.466802e-01 8.467372e-01
7.350000e+09 4.560035e-01 8.420951e-01
7.425000e+09 4.651682e-01 8.374077e-01
7.500000e+09 4.741770e-01 8.326782e-01
7.575000e+09 4.830323e-01 8.279096e-01
7.650000e+09 4.917369e-01 8.231047e-01
7.725000e+09 5.002932e-01 8.182663e-01
7.800000e+09 5.087038e-01 8.133969e-01
7.875000e+09 5.169712e-01 8.084991e-01
7.950000e+09 5.250979e-01 8.035752e-01
8.025000e+09 5.330863e-01 7.986275e-01
8.100000e+09 5.409390e-01 7.936581e-01
8.175000e+09 5.486584e-01 7.886690e-01
8.250000e+09 5.562468e-01 7.836622e-01
8.325000e+09 5.637067e-01 7.786395e-01
8.400000e+09 5.710403e-01 7.736028e-01
8.475000e+09 5.782499e-01 7.685535e-01
8.550000e+09 5.853378e-01 7.634934e-01
8.625000e+09 5.923062e-01 7.584239e-01
8.700000e+09 5.991573e-01 7.533464e-01
8.775000e+09 6.058933e-01 7.482623e-01
8.850000e+09 6.125161e-01 7.431729e-01
8.925000e+09 6.190279e-01 7.380794e-01
9.000000e+09 6.254308e-01 7.329828e-01
9.075000e+09 6.317266e-01 7.278844e-01
9.150000e+09 6.379173e-01 7.227851e-01
9.225000e+09 6.440049e-01 7.176860e-01
9.300000e+09 6.499911e-01 7.125879e-01
9.375000e+09 6.558778e-01 7.074918e-01
9.450000e+09 6.616668e-01 7.023985e-01
9.525000e+09 6.673598e-01 6.973087e-01
9.600000e+09 6.729585e-01 6.922233e-01
9.675000e+09 6.784647e-01 6.871429e-01
9.750000e+09 6.838798e-01 6.820683e-01
9.825000e+09 6.892056e-01 6.770001e-01
9.900000e+09 6.944435e-01 6.719389e-01
9.975000e+09 6.995952e-01 6.668853e-01
1.005000e+10 7.046621e-01 6.618399e-01
1.012500e+10 7.096457e-01 6.568032e-01
1.020000e+10 7.145473e-01 6.517757e-01
1.027500e+10 7.193686e-01 6.467579e-01
1.035000e+10 7.241107e-01 6.417503e-01
1.042500e+10 7.287751e-01 6.367533e-01
1.050000e+10 7.333631e-01 6.317673e-01
1.057500e+10 7.378760e-01 6.267928e-01
1.065000e+10 7.423150e-01 6.218301e-01
1.072500e+10 7.466815e-01 6.168796e-01
1.080000e+10 7.509766e-01 6.119416e-01
1.087500e+10 7.552015e-01 6.070165e-01
1.095000e+10 7.593575e-01 6.021045e-01
1.102500e+10 7.634457e-01 5.972060e-01
1.110000e+10 7.674672e-01 5.923213e-01
1.117500e+10 7.714232e-01 5.874506e-01
1.125000e+10 7.753148e-01 5.825942e-01
1.132500e+10 7.791430e-01 5.777523e-01
1.140000e+10 7.829089e-01 5.729251e-01
1.147500e+10 7.866136e-01 5.681129e-01
1.155000e+10 7.902581e-01 5.633158e-01
1.162500e+10 7.938434e-01 5.585341e-01
1.170000e+10 7.973705e-01 5.537679e-01
1.177500e+10 8.008404e-01 5.490173e-01
1.185000e+10 8.042540e-01 5.442826e-01
1.192500e+10 8.076124e-01 5.395638e-01
1.200000e+10 8.109164e-01 5.348611e-01
1.207500e+10 8.141669e-01 5.301745e-01
1.215000e+10 8.173648e-01 5.255043e-01
1.222500e+10 8.205111e-01 5.208504e-01
1.230000e+10 8.236066e-01 5.162130e-01
1.237500e+10 8.266522e-01 5.115921e-01
1.245000e+10 8.296486e-01 5.069878e-01
1.252500e+10 8.325967e-01 5.024001e-01
1.260000e+10 8.354974e-01 4.978291e-01
1.267500e+10 8.383514e-01 4.932747e-01
1.275000e+10 8.411595e-01 4.887371e-01
1.282500e+10 8.439224e-01 4.842162e-01
1.290000e+10 8.466410e-01 4.797121e-01
1.297500e+10 8.493159e-01 4.752247e-01
1.305000e+10 8.519479e-01 4.707539e-01
1.312500e+10 8.545377e-01 4.662999e-01
1.320000e+10 8.570859e-01 4.618625e-01
1.327500e+10 8.595932e-01 4.574418e-01
1.335000e+10 8.620604e-01 4.530377e-01
1.342500e+10 8.644880e-01 4.486501e-01
1.350000e+10 8.668768e-01 4.442790e-01
1.357500e+10 8.692272e-01 4.399243e-01
1.365000e+10 8.715400e-01 4.355861e-01
1.372500e+10 8.738157e-01 4.312641e-01
1.380000e+10 8.760549e-01 4.269584e-01
1.387500e+10 8.782581e-01 4.226688e-01
1.395000e+10 8.804260e-01 4.183954e-01
1.402500e+10 8.825591e-01 4.141379e-01
1.410000e+10 8.846579e-01 4.098964e-01
1.417500e+10 8.867229e-01 4.056708e-01
1.425000e+10 8.887547e-01 4.014609e-01
1.432500e+10 8.907536e-01 3.972667e-01
1.440000e+10 8.927203e-01 3.930881e-01
1.447500e+10 8.946552e-01 3.889249e-01
1.455000e+10 8.965588e-01 3.847772e-01
1.462500e+10 8.984315e-01 3.806448e-01
1.470000e+10 9.002737e-01 3.765276e-01
1.477500e+10 9.020859e-01 3.724255e-01
1.485000e+10 9.038685e-01 3.683384e-01
1.492500e+10 9.056220e-01 3.642663e-01
1.500000e+10 9.073466e-01 3.602090e-01
1.507500e+10 9.090429e-01 3.561664e-01
1.515000e+10 9.107113e-01 3.521385e-01
1.522500e+10 9.123520e-01 3.481252e-01
1.530000e+10 9.139655e-01 3.441263e-01
1.537500e+10 9.155521e-01 3.401418e-01
1.545000e+10 9.171123e-01 3.361716e-01
1.552500e+10 9.186462e-01 3.322156e-01
1.560000e+10 9.201544e-01 3.282737e-01
1.567500e+10 9.216371e-01 3.243458e-01
1.575000e+10 9.230947e-01 3.204318e-01
1.582500e+10 9.245274e-01 3.165317e-01
1.590000e+10 9.259357e-01 3.126454e-01
1.597500e+10 9.273197e-01 3.087727e-01
1.605000e+10 9.286800e-01 3.049136e-01
1.612500e+10 9.300166e-01 3.010680e-01
1.620000e+10 9.313300e-01 2.972358e-01
1.627500e+10 9.326204e-01 2.934169e-01
1.635000e+10 9.338882e-01 2.896114e-01
1.642500e+10 9.351335e-01 2.858189e-01
1.650000e+10 9.363567e-01 2.820396e-01
1.657500e+10 9.375582e-01 2.782733e-01
1.665000e+10 9.387380e-01 2.745200e-01
1.672500e+10 9.398966e-01 2.707795e-01
1.680000e+10 9.410341e-01 2.670518e-01
1.687500e+10 9.421509e-01 2.633367e-01
1.695000e+10 9.432472e-01 2.596343e-01
1.702500e+10 9.443233e-01 2.559444e-01
1.710000e+10 9.453793e-01 2.522670e-01
1.717500e+10 9.464157e-01 2.486020e-01
1.725000e+10 9.474325e-01 2.449493e-01
1.732500e+10 9.484301e-01 2.413088e-01
1.740000e+10 9.494086e-01 2.376804e-01
1.747500e+10 9.503684e-01 2.340641e-01
1.755000e+10 9.513096e-01 2.304597e-01
1.762500e+10 9.522326e-01 2.268673e-01
1.770000e+10 9.531374e-01 2.232866e-01
1.777500e+10 9.540244e-01 2.197177e-01
1.785000e+10 9.548937e-01 2.161604e-01
1.792500e+10 9.557456e-01 2.126147e-01
1.800000e+10 9.565802e-01 2.090805e-01
1.807500e+10 9.573979e-01 2.055576e-01
1.815000e+10 9.581987e-01 2.020460e-01
1.822500e+10 9.589830e-01 1.985457e-01
1.830000e+10 9.597508e-01 1.950564e-01
1.837500e+10 9.605025e-01 1.915782e-01
1.845000e+10 9.612381e-01 1.881110e-01
1.852500e+10 9.619579e-01 1.846546e-01
1.860000e+10 9.626620e-01 1.812089e-01
1.867500e+10 9.633507e-01 1.777739e-01
1.875000e+10 9.640241e-01 1.743495e-01
1.882500e+10 9.646823e-01 1.709356e-01
1.890000e+10 9.653257e-01 1.675321e-01
1.897500e+10 9.659542e-01 1.641389e-01
1.905000e+10 9.665682e-01 1.607559e-01
1.912500e+10 9.671676e-01 1.573830e-01
1.920000e+10 9.677528e-01 1.540201e-01
1.927500e+10 9.683238e-01 1.506672e-01
1.935000e+10 9.688809e-01 1.473241e-01
1.942500e+10 9.694240e-01 1.439907e-01
1.950000e+10 9.699534e-01 1.406671e-01
1.957500e+10 9.704693e-01 1.373530e-01
1.965000e+10 9.709716e-01 1.340483e-01
1.972500e+10 9.714607e-01 1.307531e-01
1.980000e+10 9.719365e-01 1.274672e-01
1.987500e+10 9.723993e-01 1.241905e-01
1.995000e+10 9.728491e-01 1.209230e-01
2.002500e+10 9.732860e-01 1.176645e-01
2.010000e+10 9.737103e-01 1.144149e-01
2.017500e+10 9.741219e-01 1.111743e-01
2.025000e+10 9.745209e-01 1.079425e-01
2.032500e+10 9.749076e-01 1.047194e-01
2.040000e+10 9.752819e-01 1.015050e-01
2.047500e+10 9.756441e-01 9.829913e-02
2.055000e+10 9.759941e-01 9.510182e-02
2.062500e+10 9.763321e-01 9.191295e-02
2.070000e+10 9.766581e-01 8.873247e-02
2.077500e+10 9.769723e-01 8.556030e-02
2.085000e+10 9.772748e-01 8.239638e-02
2.092500e+10 9.775656e-01 7.924065e-02
2.100000e+10 9.778448e-01 7.609306e-02
2.107500e+10 9.781125e-01 7.295353e-02
2.115000e+10 9.783688e-01 6.982203e-02
2.122500e+10 9.786138e-01 6.669848e-02
2.130000e+10 9.788475e-01 6.358285e-02
2.137500e+10 9.790701e-01 6.047508e-02
2.145000e+10 9.792816e-01 5.737512e-02
2.152500e+10 9.794821e-01 5.428292e-02
2.160000e+10 9.796716e-01 5.119844e-02
2.167500e+10 9.798504e-01 4.812164e-02
2.175000e+10 9.800183e-01 4.505247e-02
2.182500e+10 9.801756e-01 4.199088e-02
2.190000e+10 9.803223e-01 3.893685e-02
2.197500e+10 9.804584e-01 3.589031e-02
2.205000e+10 9.805841e-01 3.285125e-02
2.212500e+10 9.806995e-01 2.981961e-02
2.220000e+10 9.808046e-01 2.679535e-02
2.227500e+10 9.808995e-01 2.377844e-02
2.235000e+10 9.809843e-01 2.076884e-02
2.242500e+10 9.810591e-01 1.776650e-02
2.250000e+10 9.811239e-01 1.477139e-02
2.257500e+10 9.811789e-01 1.178347e-02
2.265000e+10 9.812241e-01 8.802685e-03
2.272500e+10 9.812597e-01 5.829003e-03
2.280000e+10 9.812856e-01 2.862377e-03
2.287500e+10 9.813020e-01 -9.723791e-05
2.295000e+10 9.813090e-01 -3.049888e-03
2.302500e+10 9.813067e-01 -5.995620e-03
2.310000e+10 9.812950e-01 -8.934485e-03
2.317500e+10 9.812742e-01 -1.186653e-02
2.325000e+10 9.812443e-01 -1.479182e-02
2.332500e+10 9.812054e-01 -1.771039e-02
2.340000e+10 9.811576e-01 -2.062231e-02
2.347500e+10 9.811008e-01 -2.352764e-02
2.355000e+10 9.810353e-01 -2.642643e-02
2.362500e+10 9.809611e-01 -2.931874e-02
2.370000e+10 9.808783e-01 -3.220464e-02
2.377500e+10 9.807869e-01 -3.508419e-02
2.385000e+10 9.806870e-01 -3.795747e-02
2.392500e+10 9.805786e-01 -4.082452e-02
2.400000e+10 9.804619e-01 -4.368543e-02
2.407500e+10 9.803369e-01 -4.654026e-02
2.415000e+10 9.802036e-01 -4.938909e-02
2.422500e+10 9.800621e-01 -5.223198e-02
2.430000e+10 9.799125e-01 -5.506900e-02
2.437500e+10 9.797547e-01 -5.790023e-02
2.445000e+10 9.795889e-01 -6.072573e-02
2.452500e+10 9.794150e-01 -6.354559e-02
2.460000e+10 9.792332e-01 -6.635986e-02
2.467500e+10 9.790434e-01 -6.916862e-02
2.475000e+10 9.788456e-01 -7.197194e-02
2.482500e+10 9.786400e-01 -7.476987e-02
2.490000e+10 9.784264e-01 -7.756250e-02
2.497500e+10 9.782050e-01 -8.034988e-02
2.505000e+10 9.779757e-01 -8.313206e-02
2.512500e+10 9.777385e-01 -8.590912e-02
2.520000e+10 9.774936e-01 -8.868110e-02
2.527500e+10 9.772407e-01 -9.144805e-02
2.535000e+10 9.769801e-01 -9.421003e-02
2.542500e+10 9.767116e-01 -9.696708e-02
2.550000e+10 9.764352e-01 -9.971924e-02
2.557500e+10 9.761511e-01 -1.024665e-01
2.565000e+10 9.758590e-01 -1.052090e-01
2.572500e+10 9.755592e-01 -1.079467e-01
2.580000e+10 9.752514e-01 -1.106797e-01
2.587500e+10 9.749358e-01 -1.134079e-01
2.595000e+10 9.746124e-01 -1.161313e-01
2.602500e+10 9.742811e-01 -1.188501e-01
2.610000e+10 9.739419e-01 -1.215641e-01
2.617500e+10 9.735948e-01 -1.242735e-01
2.625000e+10 9.732398e-01 -1.269781e-01
2.632500e+10 9.728770e-01 -1.296781e-01
2.640000e+10 9.725063e-01 -1.323733e-01
2.647500e+10 9.721277e-01 -1.350638e-01
2.655000e+10 9.717413e-01 -1.377496e-01
2.662500e+10 9.713471e-01 -1.404307e-01
2.670000e+10 9.709450e-01 -1.431070e-01
2.677500e+10 9.705352e-01 -1.457785e-01
2.685000e+10 9.701176e-01 -1.484452e-01
2.692500e+10 9.696923e-01 -1.511071e-01
2.700000e+10 9.692592e-01 -1.537641e-01
2.707500e+10 9.688186e-01 -1.564164e-01
2.715000e+10 9.683703e-01 -1.590637e-01
2.722500e+10 9.679146e-01 -1.617062e-01
2.730000e+10 9.674513e-01 -1.643437e-01
2.737500e+10 9.669806e-01 -1.669764e-01
2.745000e+10 9.665025e-01 -1.696041e-01
2.752500e+10 9.660172e-01 -1.722270e-01
2.760000e+10 9.655246e-01 -1.748449e-01
2.767500e+10 9.650249e-01 -1.774579e-01
2.775000e+10 9.645182e-01 -1.800660e-01
2.782500e+10 9.640045e-01 -1.826692e-01
2.790000e+10 9.634839e-01 -1.852675e-01
2.797500e+10 9.629565e-01 -1.878611e-01
2.805000e+10 9.624224e-01 -1.904498e-01
2.812500e+10 9.618816e-01 -1.930338e-01
2.820000e+10 9.613344e-01 -1.956131e-01
2.827500e+10 9.607807e-01 -1.981878e-01
2.835000e+10 9.602206e-01 -2.007579e-01
2.842500e+10 9.596542e-01 -2.033235e-01
2.850000e+10 9.590816e-01 -2.058847e-01
2.857500e+10 9.585028e-01 -2.084416e-01
2.865000e+10 9.579180e-01 -2.109943e-01
2.872500e+10 9.573271e-01 -2.135428e-01
2.880000e+10 9.567303e-01 -2.160873e-01
2.887500e+10 9.561275e-01 -2.186279e-01
2.895000e+10 9.555188e-01 -2.211648e-01
2.902500e+10 9.549043e-01 -2.236979e-01
2.910000e+10 9.542839e-01 -2.262276e-01
2.917500e+10 9.536576e-01 -2.287538e-01
2.925000e+10 9.530255e-01 -2.312767e-01
2.932500e+10 9.523876e-01 -2.337965e-01
2.940000e+10 9.517437e-01 -2.363132e-01
2.947500e+10 9.510939e-01 -2.388270e-01
2.955000e+10 9.504381e-01 -2.413380e-01
2.962500e+10 9.497762e-01 -2.438464e-01
2.970000e+10 9.491082e-01 -2.463522e-01
2.977500e+10 9.484341e-01 -2.488555e-01
2.985000e+10 9.477536e-01 -2.513565e-01
2.992500e+10 9.470667e-01 -2.538552e-01
3.000000e+10 9.463733e-01 -2.563516e-01
